Sample in Buffer,Sample in Window,TRIGGER,top_i/aiscale/cfg_tdata[298:0],top_i/aiscale/cfg_tdata_1[672:300],top_i/aiscale/cfg_tready,top_i/aiscale/cfg_tvalid,top_i/aiscale/dout0_tdata[68:0],top_i/aiscale/dout0_tready,top_i/aiscale/dout0_tvalid,top_i/aiscale/dout1_tdata[63:32],top_i/aiscale/dout1_tready,top_i/aiscale/dout1_tvalid,top_i/aiscale/dout2_tdata_1[2:1],top_i/aiscale/dout2_tdata[63:32],top_i/aiscale/dout2_tready,top_i/aiscale/dout2_tvalid,top_i/aiscale/dout3_tdata_1[15:1],top_i/aiscale/dout3_tdata[63:32],top_i/aiscale/dout3_tready,top_i/aiscale/dout3_tvalid,top_i/aiscale/inst/aiscale_i/aiscale_cfg_i/handshake,top_i/aiscale/inst/aiscale_i/aiscale_cfg_i/local_rst,top_i/aiscale/inst/aiscale_i/aiscale_cfg_i/others_dout\\.data_1[154:91],top_i/aiscale/inst/aiscale_i/aiscale_cfg_i/others_dout\\.data_2[196:188],top_i/aiscale/inst/aiscale_i/aiscale_cfg_i/others_dout\\.data_3[289:258],top_i/aiscale/inst/aiscale_i/aiscale_cfg_i/others_dout\\.data[387:291],top_i/aiscale/inst/aiscale_i/aiscale_cfg_i/others_dout\\.dready,top_i/aiscale/inst/aiscale_i/aiscale_cfg_i/others_dout\\.dvalid,top_i/aiscale/inst/aiscale_i/aiscale_cfg_i/state_reg[2:0],top_i/aiscale/inst/aiscale_i/aiscale_cfg_i/wm_dout\\.data_1[47:0],top_i/aiscale/inst/aiscale_i/aiscale_cfg_i/wm_dout\\.data_2[73:73],top_i/aiscale/inst/aiscale_i/aiscale_cfg_i/wm_dout\\.data[78:78],top_i/aiscale/inst/aiscale_i/aiscale_cfg_i/wm_dout\\.dready,top_i/aiscale/inst/aiscale_i/aiscale_cfg_i/wm_dout\\.dvalid,top_i/aiscale/inst/aiscale_i/rcu_wrap_i/bias_wm\\.data_1[30:0],top_i/aiscale/inst/aiscale_i/rcu_wrap_i/bias_wm\\.data_2[62:32],top_i/aiscale/inst/aiscale_i/rcu_wrap_i/bias_wm\\.data_3[94:64],top_i/aiscale/inst/aiscale_i/rcu_wrap_i/bias_wm\\.data_4[126:96],top_i/aiscale/inst/aiscale_i/rcu_wrap_i/bias_wm\\.data[129:128],top_i/aiscale/inst/aiscale_i/rcu_wrap_i/brick_combiner_if_s\\.data[63:0],top_i/aiscale/inst/aiscale_i/rcu_wrap_i/brick_combiner_if_s\\.dready,top_i/aiscale/inst/aiscale_i/rcu_wrap_i/brick_combiner_if_s\\.dvalid,top_i/aiscale/inst/aiscale_i/rcu_wrap_i/nzi_im\\.data_1[63:0],top_i/aiscale/inst/aiscale_i/rcu_wrap_i/nzi_im\\.data[69:67],top_i/aiscale/inst/aiscale_i/rcu_wrap_i/nzi_im\\.dready,top_i/aiscale/inst/aiscale_i/rcu_wrap_i/nzi_im\\.dvalid,top_i/aiscale/inst/aiscale_i/rcu_wrap_i/nzi_wm\\.data[65:0],top_i/aiscale/inst/aiscale_i/rcu_wrap_i/nzi_wm\\.dready,top_i/aiscale/inst/aiscale_i/rcu_wrap_i/nzi_wm\\.dvalid,top_i/aiscale/inst/aiscale_i/rcu_wrap_i/nzv_im\\.data[69:0],top_i/aiscale/inst/aiscale_i/rcu_wrap_i/nzv_im\\.dready,top_i/aiscale/inst/aiscale_i/rcu_wrap_i/nzv_im\\.dvalid,top_i/aiscale/inst/aiscale_i/rcu_wrap_i/nzv_wm\\.data[65:0],top_i/aiscale/inst/aiscale_i/rcu_wrap_i/nzv_wm\\.dready,top_i/aiscale/inst/aiscale_i/rcu_wrap_i/nzv_wm\\.dvalid,top_i/aiscale/inst/aiscale_i/rcu_wrap_i/rcu_top_if_s\\.data[16:0],top_i/aiscale/inst/aiscale_i/rcu_wrap_i/rcu_top_if_s\\.dready,top_i/aiscale/inst/aiscale_i/rcu_wrap_i/rcu_top_if_s\\.dvalid,top_i/aiscale/is_din_tdata[64:0],top_i/aiscale/is_din_tready,top_i/aiscale/is_din_tvalid,top_i/aiscale/nnzv_os_tdata[15:0],top_i/aiscale/nnzv_os_tready,top_i/aiscale/nnzv_os_tvalid
0,0,0,0888c40400402007c03e0040000100800334003184a8002d84a80013e4a8000400400019a00,00000000000080220183800001840002018400000000000002030fffe0000000220000000441828000018300000010,0,1,0f0000000000000000,1,0,30800040,1,0,2,00000000,1,0,0040,00000000,0,0,0,0,3050000030600000,020,00000000,060e000006100008061000000,0,1,5,000000000000,1,1,0,0,000ce300,0003c600,0001f400,00083e00,1,0000000000000000,0,0,ad9f3307fa8fb1bc,0,1,0,0083e01f403c60ce3,1,0,0400000000027f0329,1,0,00000000000000000,1,0,00000,1,0,0020902910a6f0823,1,1,0006,0,0
1,1,0,0888c40400402007c03e0040000100800334003184a8002d84a80013e4a8000400400019a00,00000000000080220183800001840002018400000000000002030fffe0000000220000000441828000018300000010,0,1,0f0000000000000000,1,0,30800040,1,0,2,00000000,1,0,0040,00000000,0,0,0,0,3050000030600000,020,00000000,060e000006100008061000000,0,1,5,000000000000,1,1,0,0,00082300,000a6f00,00029100,00020900,1,0000000000000000,0,0,ad9f3307fa8fb1bc,0,1,0,0020902910a6f0823,1,0,0400000000027f0329,1,0,00000000000000000,1,0,00000,1,0,103240490053203de,1,1,0006,0,0
2,2,0,0888c40400402007c03e0040000100800334003184a8002d84a80013e4a8000400400019a00,00000000000080220183800001840002018400000000000002030fffe0000000220000000441828000018300000010,0,1,0f0000000000000000,1,0,30800040,1,0,2,00000000,1,0,0040,00000000,0,0,0,0,3050000030600000,020,00000000,060e000006100008061000000,0,1,5,000000000000,1,1,0,0,0003de00,00053200,00049000,00032400,1,0000000000000000,0,0,ad9f3307fa8fb1bc,0,1,0,003240490053203de,1,0,0400000000027f0329,1,0,00000000000000000,1,0,00000,1,0,00000000000000000,1,0,0006,0,0
3,3,0,0888c40400402007c03e0040000100800334003184a8002d84a80013e4a8000400400019a00,00000000000080220183800001840002018400000000000002030fffe0000000220000000441828000018300000010,0,1,0f0000000000000000,1,0,30800040,1,0,2,00000000,1,0,0040,00000000,1,0,0,0,3050000030600000,020,00000000,060e000006100008061000000,0,1,5,000000000000,1,1,0,0,00082300,000a6f00,00029100,00020900,1,0000000000000000,0,0,ad9f3307fa8fb1bc,0,1,0,0020902910a6f0823,1,0,0400000000027f0329,1,0,00000000000000000,1,0,00000,1,0,00000000000000000,1,0,0006,0,0
4,4,0,0888c40400402007c03e0040000100800334003184a8002d84a80013e4a8000400400019a00,00000000000080220183800001840002018400000000000002030fffe0000000220000000441828000018300000010,0,1,0f0000000000000000,1,0,30800040,1,0,2,00000000,1,0,0040,00000000,1,0,0,0,3050000030600000,020,00000000,060e000006100008061000000,0,1,5,000000000000,1,1,0,0,00082300,000a6f00,00029100,00020900,1,0000000000000000,0,0,ad9f3307fa8fb1bc,0,1,0,0020902910a6f0823,1,0,0400000000027f0329,1,0,00000000000000000,1,0,00000,1,0,00c0030142e80c552,1,1,0006,0,0
5,5,0,0888c40400402007c03e0040000100800334003184a8002d84a80013e4a8000400400019a00,00000000000080220183800001840002018400000000000002030fffe0000000220000000441828000018300000010,0,1,0f0000000000000000,1,0,30800040,1,0,2,00000000,1,0,0040,00000000,1,0,0,0,3050000030600000,020,00000000,060e000006100008061000000,0,1,5,000000000000,1,1,0,0,00c55200,002e8000,00301400,000c0000,1,0000000000000000,0,0,ad9f3307fa8fb1bc,0,1,0,00c0030142e80c552,1,0,0400000000027f0329,1,0,00000000000000000,1,0,00000,1,0,001010218069a0707,1,1,0006,0,0
6,6,0,0888c40400402007c03e0040000100800334003184a8002d84a80013e4a8000400400019a00,00000000000080220183800001840002018400000000000002030fffe0000000220000000441828000018300000010,0,1,0f0000000000000000,1,0,30800040,1,0,2,00000000,1,0,0040,00000000,1,0,0,0,3050000030600000,020,00000000,060e000006100008061000000,0,1,5,000000000000,1,1,0,0,00070700,00069a00,00021800,00010100,1,0000000000000000,0,0,ad9f3307fa8fb1bc,0,1,0,001010218069a0707,1,0,0400000000027f0329,1,0,00000000000000000,1,0,00000,1,0,0033c02db09480162,1,1,0006,0,0
7,7,0,0888c40400402007c03e0040000100800334003184a8002d84a80013e4a8000400400019a00,00000000000080220183800001840002018400000000000002030fffe0000000220000000441828000018300000010,0,1,0f0000000000000000,1,0,30800040,1,0,2,00000000,1,0,0040,00000000,1,0,0,0,3050000030600000,020,00000000,060e000006100008061000000,0,1,5,000000000000,1,1,0,0,00016200,00094800,0002db00,00033c00,1,0000000000000000,0,0,ad9f3307fa8fb1bc,0,1,0,0033c02db09480162,1,0,0400000000027f0329,1,0,00000000000000000,1,0,00000,1,0,0078a0915077b020c,1,1,0006,0,0
8,8,0,0888c40400402007c03e0040000100800334003184a8002d84a80013e4a8000400400019a00,00000000000080220183800001840002018400000000000002030fffe0000000220000000441828000018300000010,0,1,0f0000000000000000,1,0,30800040,1,0,2,00000000,1,0,0040,00000000,1,0,0,0,3050000030600000,020,00000000,060e000006100008061000000,0,1,5,000000000000,1,1,0,0,00020c00,00077b00,00091500,00078a00,1,0000000000000000,0,0,ad9f3307fa8fb1bc,0,1,0,0078a0915077b020c,1,0,0400000000027f0329,1,0,00000000000000000,1,0,00000,1,0,008f1010307c90b03,1,1,0006,0,0
9,9,0,0888c40400402007c03e0040000100800334003184a8002d84a80013e4a8000400400019a00,00000000000080220183800001840002018400000000000002030fffe0000000220000000441828000018300000010,0,1,0f0000000000000000,1,0,30800040,1,0,2,00000000,1,0,0040,00000000,1,0,0,0,3050000030600000,020,00000000,060e000006100008061000000,0,1,5,000000000000,1,1,0,0,000b0300,0007c900,00010300,0008f100,1,0000000000000000,0,0,ad9f3307fa8fb1bc,0,1,0,008f1010307c90b03,1,0,0400000000027f0329,1,0,00000000000000000,1,0,00000,1,0,100000000004c0288,1,1,0006,0,0
10,10,0,0888c40400402007c03e0040000100800334003184a8002d84a80013e4a8000400400019a00,00000000000080220183800001840002018400000000000002030fffe0000000220000000441828000018300000010,0,1,0f0000000000000000,1,0,30800040,1,0,2,00000000,1,0,0040,00000000,1,0,0,0,3050000030600000,020,00000000,060e000006100008061000000,0,1,5,000000000000,1,1,0,0,00028800,00004c00,00000000,00000000,1,0000000000000000,0,0,ad9f3307fa8fb1bc,0,1,0,000000000004c0288,1,0,0400000000027f0329,1,0,00000000000000000,1,0,00000,1,0,00000000000000000,1,0,0006,0,0
11,11,0,0888c40400402007c03e0040000100800334003184a8002d84a80013e4a8000400400019a00,00000000000080220183800001840002018400000000000002030fffe0000000220000000441828000018300000010,0,1,0f0000000000000000,1,0,30800040,1,0,2,00000000,1,0,0040,00000000,1,0,0,0,3050000030600000,020,00000000,060e000006100008061000000,0,1,5,000000000000,1,1,0,0,000b0300,0007c900,00010300,0008f100,1,0000000000000000,0,0,ad9f3307fa8fb1bc,0,1,0,008f1010307c90b03,1,0,0400000000027f0329,1,0,00000000000000000,1,0,00000,1,0,00000000000000000,1,0,0006,0,0
12,12,0,0888c40400402007c03e0040000100800334003184a8002d84a80013e4a8000400400019a00,00000000000080220183800001840002018400000000000002030fffe0000000220000000441828000018300000010,0,1,0f0000000000000000,1,0,30800040,1,0,2,00000000,1,0,0040,00000000,1,0,0,0,3050000030600000,020,00000000,060e000006100008061000000,0,1,5,000000000000,1,1,0,0,000b0300,0007c900,00010300,0008f100,1,0000000000000000,0,0,ad9f3307fa8fb1bc,0,1,0,008f1010307c90b03,1,0,0400000000027f0329,1,0,00000000000000000,1,0,00000,1,0,00404a0112a80d450,1,1,0006,0,0
13,13,0,0888c40400402007c03e0040000100800334003184a8002d84a80013e4a8000400400019a00,00000000000080220183800001840002018400000000000002030fffe0000000220000000441828000018300000010,0,1,0f0000000000000000,1,0,30800040,1,0,2,00000000,1,0,0040,00000000,1,0,0,0,3050000030600000,020,00000000,060e000006100008061000000,0,1,5,000000000000,1,1,0,0,00d45000,002a8000,00a01100,00040400,1,0000000000000000,0,0,ad9f3307fa8fb1bc,0,1,0,00404a0112a80d450,1,0,0400000000027f0329,1,0,00000000000000000,1,0,00000,1,0,00948019503f8070e,1,1,0006,0,0
14,14,0,0888c40400402007c03e0040000100800334003184a8002d84a80013e4a8000400400019a00,00000000000080220183800001840002018400000000000002030fffe0000000220000000441828000018300000010,0,1,0f0000000000000000,1,0,30800040,1,0,2,00000000,1,0,0040,00000000,1,0,0,0,3050000030600000,020,00000000,060e000006100008061000000,0,1,5,000000000000,1,1,0,0,00070e00,0003f800,00019500,00094800,1,0000000000000000,0,0,ad9f3307fa8fb1bc,0,1,0,00948019503f8070e,1,0,0400000000027f0329,1,0,00000000000000000,1,0,00000,1,0,003d1053a09b8038f,1,1,0006,0,0
15,15,0,0888c40400402007c03e0040000100800334003184a8002d84a80013e4a8000400400019a00,00000000000080220183800001840002018400000000000002030fffe0000000220000000441828000018300000010,0,1,0f0000000000000000,1,0,30800040,1,0,2,00000000,1,0,0040,00000000,1,0,0,0,3050000030600000,020,00000000,060e000006100008061000000,0,1,5,000000000000,1,1,0,0,00038f00,0009b800,00053a00,0003d100,1,0000000000000000,0,0,ad9f3307fa8fb1bc,0,1,0,003d1053a09b8038f,1,0,0400000000027f0329,1,0,00000000000000000,1,0,00000,1,0,00859031706050624,1,1,0006,0,0
16,16,0,0888c40400402007c03e0040000100800334003184a8002d84a80013e4a8000400400019a00,00000000000080220183800001840002018400000000000002030fffe0000000220000000441828000018300000010,0,1,0f0000000000000000,1,0,30800040,1,0,2,00000000,1,0,0040,00000000,1,0,0,0,3050000030600000,020,00000000,060e000006100008061000000,0,1,5,000000000000,1,1,0,0,00062400,00060500,00031700,00085900,1,0000000000000000,0,0,ad9f3307fa8fb1bc,0,1,0,00859031706050624,1,0,0400000000027f0329,1,0,00000000000000000,1,0,00000,1,0,10c500006009e0519,1,1,0006,0,0
17,17,0,0888c40400402007c03e0040000100800334003184a8002d84a80013e4a8000400400019a00,00000000000080220183800001840002018400000000000002030fffe0000000220000000441828000018300000010,0,1,0f0000000000000000,1,0,30800040,1,0,2,00000000,1,0,0040,00000000,1,0,0,0,3050000030600000,020,00000000,060e000006100008061000000,0,1,5,000000000000,1,1,0,0,00051900,00009e00,00000600,000c5000,1,0000000000000000,0,0,ad9f3307fa8fb1bc,0,1,0,00c500006009e0519,1,0,0400000000027f0329,1,0,00000000000000000,1,0,00000,1,0,00000000000000000,1,0,0006,0,0
18,18,0,0888c40400402007c03e0040000100800334003184a8002d84a80013e4a8000400400019a00,00000000000080220183800001840002018400000000000002030fffe0000000220000000441828000018300000010,0,1,0f0000000000000000,1,0,30800040,1,0,2,00000000,1,0,0040,00000000,1,0,0,0,3050000030600000,020,00000000,060e000006100008061000000,0,1,5,000000000000,1,1,0,0,00062400,00060500,00031700,00085900,1,0000000000000000,0,0,ad9f3307fa8fb1bc,0,1,0,00859031706050624,1,0,0400000000027f0329,1,0,00000000000000000,1,0,00000,1,0,00000000000000000,1,0,0006,0,0
19,19,0,0888c40400402007c03e0040000100800334003184a8002d84a80013e4a8000400400019a00,00000000000080220183800001840002018400000000000002030fffe0000000220000000441828000018300000010,0,1,0f0000000000000000,1,0,30800040,1,0,2,00000000,1,0,0040,00000000,1,0,0,0,3050000030600000,020,00000000,060e000006100008061000000,0,1,5,000000000000,1,1,0,0,00062400,00060500,00031700,00085900,1,0000000000000000,0,0,ad9f3307fa8fb1bc,0,1,0,00859031706050624,1,0,0400000000027f0329,1,0,00000000000000000,1,0,00000,1,0,01c0470152a80c404,1,1,0006,0,0
20,20,0,0888c40400402007c03e0040000100800334003184a8002d84a80013e4a8000400400019a00,00000000000080220183800001840002018400000000000002030fffe0000000220000000441828000018300000010,0,1,0f0000000000000000,1,0,30800040,1,0,2,00000000,1,0,0040,00000000,1,0,0,0,3050000030600000,020,00000000,060e000006100008061000000,0,1,5,000000000000,1,1,0,0,00c40400,002a8000,00701500,001c0400,1,0000000000000000,0,0,ad9f3307fa8fb1bc,0,1,0,01c0470152a80c404,1,0,0400000000027f0329,1,0,00000000000000000,1,0,00000,1,0,000c3065607a70969,1,1,0006,0,0
21,21,0,0888c40400402007c03e0040000100800334003184a8002d84a80013e4a8000400400019a00,00000000000080220183800001840002018400000000000002030fffe0000000220000000441828000018300000010,0,1,0f0000000000000000,1,0,30800040,1,0,2,00000000,1,0,0040,00000000,1,0,0,0,3050000030600000,020,00000000,060e000006100008061000000,0,1,5,000000000000,1,1,0,0,00096900,0007a700,00065600,0000c300,1,0000000000000000,0,0,ad9f3307fa8fb1bc,0,1,0,000c3065607a70969,1,0,0400000000027f0329,1,0,00000000000000000,1,0,00000,1,0,0026c065d058702aa,1,1,0006,0,0
22,22,0,0888c40400402007c03e0040000100800334003184a8002d84a80013e4a8000400400019a00,00000000000080220183800001840002018400000000000002030fffe0000000220000000441828000018300000010,0,1,0f0000000000000000,1,0,30800040,1,0,2,00000000,1,0,0040,00000000,1,0,0,0,3050000030600000,020,00000000,060e000006100008061000000,0,1,5,000000000000,1,1,0,0,0002aa00,00058700,00065d00,00026c00,1,0000000000000000,0,0,ad9f3307fa8fb1bc,0,1,0,0026c065d058702aa,1,0,0400000000027f0329,1,0,00000000000000000,1,0,00000,1,0,004ce0221047b01b1,1,1,0006,0,0
23,23,0,0888c40400402007c03e0040000100800334003184a8002d84a80013e4a8000400400019a00,00000000000080220183800001840002018400000000000002030fffe0000000220000000441828000018300000010,0,1,0f0000000000000000,1,0,30800040,1,0,2,00000000,1,0,0040,00000000,1,0,0,0,3050000030600000,020,00000000,060e000006100008061000000,0,1,5,000000000000,1,1,0,0,0001b100,00047b00,00022100,0004ce00,1,0000000000000000,0,0,ad9f3307fa8fb1bc,0,1,0,004ce0221047b01b1,1,0,0400000000027f0329,1,0,00000000000000000,1,0,00000,1,0,002f002ea024b004c,1,1,0006,0,0
24,24,0,0888c40400402007c03e0040000100800334003184a8002d84a80013e4a8000400400019a00,00000000000080220183800001840002018400000000000002030fffe0000000220000000441828000018300000010,0,1,0f0000000000000000,1,0,30800040,1,0,2,00000000,1,0,0040,00000000,1,0,0,0,3050000030600000,020,00000000,060e000006100008061000000,0,1,5,000000000000,1,1,0,0,00004c00,00024b00,0002ea00,0002f000,1,0000000000000000,0,0,ad9f3307fa8fb1bc,0,1,0,002f002ea024b004c,1,0,0400000000027f0329,1,0,00000000000000000,1,0,00000,1,0,1000000000316003f,1,1,0006,0,0
25,25,0,0888c40400402007c03e0040000100800334003184a8002d84a80013e4a8000400400019a00,00000000000080220183800001840002018400000000000002030fffe0000000220000000441828000018300000010,0,1,0f0000000000000000,1,0,30800040,1,0,2,00000000,1,0,0040,00000000,1,0,0,0,3050000030600000,020,00000000,060e000006100008061000000,0,1,5,000000000000,1,1,0,0,00003f00,00031600,00000000,00000000,1,0000000000000000,0,0,ad9f3307fa8fb1bc,0,1,0,0000000000316003f,1,0,0400000000027f0329,1,0,00000000000000000,1,0,00000,1,0,00000000000000000,1,0,0006,0,0
26,26,0,0888c40400402007c03e0040000100800334003184a8002d84a80013e4a8000400400019a00,00000000000080220183800001840002018400000000000002030fffe0000000220000000441828000018300000010,0,1,0f0000000000000000,1,0,30800040,1,0,2,00000000,1,0,0040,00000000,1,0,0,0,3050000030600000,020,00000000,060e000006100008061000000,0,1,5,000000000000,1,1,0,0,00004c00,00024b00,0002ea00,0002f000,1,0000000000000000,0,0,ad9f3307fa8fb1bc,0,1,0,002f002ea024b004c,1,0,0400000000027f0329,1,0,00000000000000000,1,0,00000,1,0,00000000000000000,1,0,0006,0,0
27,27,0,0888c40400402007c03e0040000100800334003184a8002d84a80013e4a8000400400019a00,00000000000080220183800001840002018400000000000002030fffe0000000220000000441828000018300000010,0,1,0f0000000000000000,1,0,30800040,1,0,2,00000000,1,0,0040,00000000,1,0,0,0,3050000030600000,020,00000000,060e000006100008061000000,0,1,5,000000000000,1,1,0,0,00004c00,00024b00,0002ea00,0002f000,1,0000000000000000,0,0,ad9f3307fa8fb1bc,0,1,0,002f002ea024b004c,1,0,0400000000027f0329,1,0,00000000000000000,1,0,00000,1,0,0180070100a00c004,1,1,0006,0,0
28,28,0,0888c40400402007c03e0040000100800334003184a8002d84a80013e4a8000400400019a00,00000000000080220183800001840002018400000000000002030fffe0000000220000000441828000018300000010,0,1,0f0000000000000000,1,0,30800040,1,0,2,00000000,1,0,0040,00000000,1,0,0,0,3050000030600000,020,00000000,060e000006100008061000000,0,1,5,000000000000,1,1,0,0,00c00400,000a0000,00701000,00180000,1,0000000000000000,0,0,ad9f3307fa8fb1bc,0,1,0,0180070100a00c004,1,0,0400000000027f0329,1,0,00000000000000000,1,0,00000,1,0,0043002ac02550497,1,1,0006,0,0
29,29,0,0888c40400402007c03e0040000100800334003184a8002d84a80013e4a8000400400019a00,00000000000080220183800001840002018400000000000002030fffe0000000220000000441828000018300000010,0,1,0f0000000000000000,1,0,30800040,1,0,2,00000000,1,0,0040,00000000,1,0,0,0,3050000030600000,020,00000000,060e000006100008061000000,0,1,5,000000000000,1,1,0,0,00049700,00025500,0002ac00,00043000,1,0000000000000000,0,0,ad9f3307fa8fb1bc,0,1,0,0043002ac02550497,1,0,0400000000027f0329,1,0,00000000000000000,1,0,00000,1,0,0024c0399001b0584,1,1,0006,0,0
30,30,0,0888c40400402007c03e0040000100800334003184a8002d84a80013e4a8000400400019a00,00000000000080220183800001840002018400000000000002030fffe0000000220000000441828000018300000010,0,1,0f0000000000000000,1,0,30800040,1,0,2,00000000,1,0,0040,00000000,1,0,0,0,3050000030600000,020,00000000,060e000006100008061000000,0,1,5,000000000000,1,1,0,0,00058400,00001b00,00039900,00024c00,1,0000000000000000,0,0,ad9f3307fa8fb1bc,0,1,0,0024c0399001b0584,1,0,0400000000027f0329,1,0,00000000000000000,1,0,00000,1,0,1000002e602ef0549,1,1,0006,0,0
